hour, t(sec), P1 (kW), Q1 (kvar), P2 (kW), Q2 (kvar), P3 (kW), Q3 (kvar)
48, 0.00000, 732.835, 296.046, 518.826, 74.9271, 800.407, 259.584
48, 900.00000, 676.622, 252.008, 479.912, 52.5484, 735.478, 212.155
48, 1800.00000, 669.771, 246.682, 475.314, 49.8873, 728.02, 206.19
48, 2700.00000, 687.483, 260.418, 487.485, 56.996, 747.561, 221.741
49, 0.00000, 693.664, 265.285, 491.582, 59.3555, 754.448, 227.289
49, 900.00000, 620.251, 211.393, 442.769, 31.0128, 675.021, 164.309
49, 1800.00000, 720.513, 289.129, 511.398, 71.0141, 786.147, 252.707
49, 2700.00000, 706.655, 278.261, 501.87, 65.415, 770.777, 240.409
50, 0.00000, 685.716, 261.861, 487.645, 57.1188, 747.485, 221.763
50, 900.00000, 650.935, 234.931, 463.752, 43.1803, 708.954, 191.146
50, 1800.00000, 736.661, 301.956, 522.207, 77.3102, 804.211, 267.297
50, 2700.00000, 735.521, 301.008, 521.562, 76.9636, 802.908, 266.203
51, 0.00000, 707.94, 279.271, 502.744, 65.926, 772.219, 241.565
51, 900.00000, 679.898, 257.4, 483.465, 54.632, 741.103, 216.744
51, 1800.00000, 731.096, 297.499, 518.562, 75.2029, 797.924, 262.191
51, 2700.00000, 770.766, 329.017, 545.679, 91.1901, 842.158, 297.85
52, 0.00000, 658.227, 240.563, 468.74, 46.0783, 717.023, 197.553
52, 900.00000, 675.413, 253.93, 480.342, 52.7975, 736.108, 212.787
52, 1800.00000, 706.671, 278.316, 501.753, 65.3155, 770.804, 240.477
52, 2700.00000, 696.86, 270.563, 495.255, 61.5629, 759.858, 231.648
53, 0.00000, 657.64, 240.203, 468.056, 45.6155, 716.488, 197.224
53, 900.00000, 600.812, 196.568, 429.424, 23.3072, 653.53, 147.361
53, 1800.00000, 663.759, 244.999, 472.047, 47.8897, 723.258, 202.678
53, 2700.00000, 1035.78, 542.95, 723.481, 196.957, 1142.07, 535.824
54, 0.00000, 1590.16, 1043.44, 1094.13, 420.663, 1762.18, 1057.1
54, 900.00000, 612.736, 834.127, 67.7104, 335.933, 236.1, 836.003
54, 1800.00000, 247.407, 545.353, -162.858, 200.421, -177.598, 554.002
54, 2700.00000, -89.3377, 297.368, -385.679, 78.734, -553.769, 310.19
55, 0.00000, -175.18, 236.827, -446.47, 47.3968, -648.683, 250.593
55, 900.00000, -2571.56, 325.599, -2959.16, 649.363, -4034.63, 2074.76
55, 1800.00000, -2300.88, 386.078, -2753.17, 689.16, -3785.54, 2116.32
55, 2700.00000, -1936, 494.84, -2468.88, 762.395, -3488.16, 2195.36
56, 0.00000, -1886, 507.697, -2417.62, 785.982, -3428.94, 2212.16
56, 900.00000, -3119.08, 552.055, -3533.83, 1402.34, -4596.46, 3657.08
56, 1800.00000, -2954.65, 539.193, -3389.97, 1409.88, -4519.47, 3688.34
56, 2700.00000, -2880.25, 525.167, -3313.63, 1416.59, -4463.7, 3703.11
57, 0.00000, -2782.07, 538.825, -3242.83, 1429.83, -4375.48, 3716.39
57, 900.00000, -3079.64, 713.436, -3402.95, 1844.78, -4519.19, 4421.22
57, 1800.00000, -2442.68, 900.835, -3022.5, 1938.77, -4006.5, 4347.44
57, 2700.00000, -2366.63, 915.706, -2956.97, 1973.21, -3925.6, 4324.13
58, 0.00000, -2764.34, 764.725, -3272.96, 1938.94, -4321.78, 4427.99
58, 900.00000, -2920.58, 934.343, -3397.15, 2164.04, -4321.16, 4695.48
58, 1800.00000, -3124.32, 823.966, -3528.63, 2127.75, -4558.97, 4776.75
58, 2700.00000, -3032.61, 849.809, -3479.52, 2132.21, -4479.73, 4748.33
59, 0.00000, -3051.75, 856.503, -3499.95, 2132.14, -4491.61, 4753.38
59, 900.00000, -3073.69, 900.288, -3528.36, 2171.45, -4482.67, 4795.93
59, 1800.00000, -3436.48, 819.872, -3743.59, 2136.03, -4811.04, 4927.42
59, 2700.00000, -3445.32, 801.171, -3734.69, 2133.55, -4824.44, 4931.96
60, 0.00000, -3536.41, 789.388, -3844.12, 2138.46, -4921.51, 4971.41
60, 900.00000, -3507.93, 712.694, -3788.08, 1995.08, -4916.68, 4794.76
60, 1800.00000, -3417.53, 737.763, -3742.52, 1998.56, -4838.76, 4762.35
60, 2700.00000, -3255.28, 835.781, -3652.13, 2007.89, -4659.58, 4695.99
61, 0.00000, -3536.54, 792.279, -3823.38, 2001.84, -4888.09, 4787.15
61, 900.00000, -3208.49, 697.443, -3627.4, 1816.98, -4728.78, 4482.32
61, 1800.00000, -3093.55, 696.547, -3535.52, 1817.49, -4638.47, 4450.67
61, 2700.00000, -2920.83, 794.267, -3431.32, 1828.79, -4448.75, 4389.34
62, 0.00000, -3163.28, 724.496, -3562.8, 1815.67, -4660.02, 4460.22
62, 900.00000, -2784.99, 597.466, -3307.23, 1548.39, -4495.76, 3996.01
62, 1800.00000, -2751.74, 641.908, -3268.51, 1555.04, -4426.76, 3993.12
62, 2700.00000, -2759.46, 656.975, -3289.19, 1555.62, -4427.73, 3987.42
63, 0.00000, -3060.21, 580.294, -3464.32, 1522.1, -4660.57, 3952.96
63, 900.00000, -2629.3, 506.7, -3167.37, 1228.13, -4306.35, 3290.52
63, 1800.00000, -2606.45, 563.588, -3154.21, 1237.14, -4238.05, 3284.78
63, 2700.00000, -2445.53, 685.377, -3069.02, 1269, -4028.21, 3291.3
64, 0.00000, -2552.64, 627.399, -3117.6, 1250.25, -4142.73, 3283.59
64, 900.00000, -1474.27, 694.9, -2077.02, 823.013, -2980.49, 2182.18
64, 1800.00000, -1708.71, 594.587, -2242.28, 766.807, -3213.21, 2125.47
64, 2700.00000, -1722.43, 587.754, -2250.4, 763.547, -3227.95, 2122.54
65, 0.00000, -1747.57, 594.153, -2288.12, 758.567, -3237.93, 2115.5
65, 900.00000, 938.788, 738.582, 686.062, 478.934, 858.65, 769.132
65, 1800.00000, 1399.35, 1192.51, 1074.25, 708.138, 1367.38, 1235.43
65, 2700.00000, 1191.26, 989.051, 863.987, 577.07, 1139.1, 1035.55
66, 0.00000, 1019.54, 837.91, 706.855, 471.747, 937.078, 867.132
66, 900.00000, 1400.72, 859.753, 1078.73, 491.224, 1568.27, 978.133
66, 1800.00000, 1374.99, 889.038, 1083.64, 479.611, 1579.12, 935.357
66, 2700.00000, 1216.15, 748.244, 919.281, 363.107, 1398.1, 776.775
67, 0.00000, 1144.01, 682.416, 849.807, 314.643, 1310.07, 705.345
67, 900.00000, 1155.8, 692.713, 855.933, 316.383, 1317.05, 718.919
67, 1800.00000, 1182.83, 717.364, 878.094, 331.037, 1347.92, 747.542
67, 2700.00000, 1211.22, 744.388, 902.509, 347.039, 1381.06, 777.228
68, 0.00000, 1218.16, 751.033, 909.199, 352.497, 1391.98, 784.59
68, 900.00000, 1455.86, 1005.15, 1124.08, 469.209, 1619.15, 1031.14
68, 1800.00000, 1094.01, 631.522, 810.068, 302.937, 1282.35, 658.02
68, 2700.00000, 1281.75, 821.191, 965.9, 374.874, 1437.91, 845.409
69, 0.00000, 1278.92, 804.116, 955.818, 385.965, 1461.87, 853.361
69, 900.00000, 1067.74, 613.948, 791.498, 281.977, 1236.83, 625.961
69, 1800.00000, 1122.33, 662.265, 827.161, 294.967, 1271.88, 683.651
69, 2700.00000, 1081.18, 622.894, 794.623, 279.616, 1236.7, 642.696
70, 0.00000, 1037.08, 584.255, 759.481, 255.98, 1184.3, 596.98
70, 900.00000, 988.587, 540.729, 719.946, 230.744, 1126.18, 547.713
70, 1800.00000, 924.723, 485.002, 668.998, 198.64, 1051.08, 483.622
70, 2700.00000, 861.562, 430.644, 618.572, 166.911, 975.823, 421.358
71, 0.00000, 772.746, 355.442, 549.819, 124.088, 863.831, 330.575
71, 900.00000, 724.848, 315.395, 514.095, 102.657, 803.47, 281.615
71, 1800.00000, 694.157, 271.016, 491.133, 65.8046, 756.279, 232.521
71, 2700.00000, 729.934, 299.209, 515.247, 79.957, 796.069, 264.471
