hour, t(sec), P1 (kW), Q1 (kvar), P2 (kW), Q2 (kvar), P3 (kW), Q3 (kvar)
48, 0.00000, 732.835, 296.046, 518.826, 74.9271, 800.407, 259.584
48, 900.00000, 676.622, 252.008, 479.912, 52.5484, 735.478, 212.155
48, 1800.00000, 669.771, 246.682, 475.314, 49.8873, 728.02, 206.19
48, 2700.00000, 687.483, 260.418, 487.485, 56.996, 747.561, 221.741
49, 0.00000, 693.664, 265.285, 491.582, 59.3555, 754.448, 227.289
49, 900.00000, 620.251, 211.393, 442.769, 31.0128, 675.021, 164.309
49, 1800.00000, 720.513, 289.129, 511.398, 71.0141, 786.147, 252.707
49, 2700.00000, 706.655, 278.261, 501.87, 65.415, 770.777, 240.409
50, 0.00000, 685.716, 261.861, 487.645, 57.1188, 747.485, 221.763
50, 900.00000, 650.935, 234.931, 463.752, 43.1803, 708.954, 191.146
50, 1800.00000, 736.661, 301.956, 522.207, 77.3102, 804.211, 267.297
50, 2700.00000, 735.521, 301.008, 521.562, 76.9636, 802.908, 266.203
51, 0.00000, 707.94, 279.271, 502.744, 65.926, 772.219, 241.565
51, 900.00000, 679.898, 257.4, 483.465, 54.632, 741.103, 216.744
51, 1800.00000, 731.096, 297.499, 518.562, 75.2029, 797.924, 262.191
51, 2700.00000, 770.766, 329.017, 545.679, 91.1901, 842.158, 297.85
52, 0.00000, 658.227, 240.563, 468.74, 46.0783, 717.023, 197.553
52, 900.00000, 675.413, 253.93, 480.342, 52.7975, 736.108, 212.787
52, 1800.00000, 706.671, 278.316, 501.753, 65.3155, 770.804, 240.477
52, 2700.00000, 696.86, 270.563, 495.255, 61.5629, 759.858, 231.648
53, 0.00000, 657.64, 240.203, 468.056, 45.6155, 716.488, 197.224
53, 900.00000, 600.812, 196.568, 429.424, 23.3072, 653.53, 147.361
53, 1800.00000, 663.759, 244.999, 472.047, 47.8897, 723.258, 202.678
53, 2700.00000, 1035.78, 542.95, 723.481, 196.957, 1142.07, 535.824
54, 0.00000, 1590.16, 1043.44, 1094.13, 420.663, 1762.18, 1057.1
54, 900.00000, 82.6273, 761.936, 93.3146, 340.47, 204.994, 805.198
54, 1800.00000, -270.914, 524.155, -140.882, 208.73, -206.146, 527.238
54, 2700.00000, -614.494, 322.356, -367.294, 90.1691, -580.324, 285.638
55, 0.00000, -709.582, 273.152, -429.177, 59.3851, -674.383, 226.404
55, 900.00000, -4477.03, 1937.66, -3248.75, 715.639, -4583.9, 2409.15
55, 1800.00000, -4219.35, 1957.53, -2903.86, 702.357, -4362.43, 2414.12
55, 2700.00000, -3856.4, 2001.46, -2552.94, 744.094, -4041.66, 2441.19
56, 0.00000, -3784.69, 2025.86, -2462.08, 747.736, -3974.16, 2449.4
56, 900.00000, -5362.94, 3269.21, -3775.93, 1369.73, -5618.91, 4576.91
56, 1800.00000, -5220.34, 3290.47, -3622.59, 1350.39, -5489.85, 4566.15
56, 2700.00000, -5199.53, 3322.71, -3542.15, 1339.1, -5440.69, 4571.43
57, 0.00000, -5117.06, 3317.69, -3504.83, 1360.27, -5404.94, 4591.85
57, 900.00000, -5580.49, 4214.99, -3826.34, 1844.54, -5549.45, 5679.51
57, 1800.00000, -5007.77, 4281.04, -3329.78, 1911.34, -4912.81, 5418.79
57, 2700.00000, -4932.16, 4342.07, -3214.08, 1913.66, -4834.01, 5424.26
58, 0.00000, -5395.19, 4293.72, -3598.14, 1892.94, -5255.77, 5567.4
58, 900.00000, -5500.41, 4752.22, -3749.93, 2160.22, -5187.89, 6004.41
58, 1800.00000, -5773.84, 4767.1, -3966.9, 2159.2, -5449.54, 6148
58, 2700.00000, -5693.96, 4761.16, -3905.09, 2157.86, -5370.24, 6101.35
59, 0.00000, -5714.42, 4751.71, -3924.89, 2161.06, -5381.67, 6094.47
59, 900.00000, -5731.79, 4818.82, -3955.41, 2209.52, -5357.73, 6146.17
59, 1800.00000, -6105.74, 4823.46, -4260.16, 2232.22, -5697.68, 6311.59
59, 2700.00000, -6109.7, 4836.82, -4256.06, 2227.84, -5711.16, 6338.96
60, 0.00000, -6184.43, 4807.41, -4378.52, 2244.19, -5810.67, 6371.87
60, 900.00000, -6130.05, 4545.56, -4316.3, 2080.2, -5894.34, 6159.44
60, 1800.00000, -6051.49, 4529.93, -4257.51, 2078.8, -5815.21, 6102.9
60, 2700.00000, -5873.87, 4481.39, -4134.68, 2084.98, -5621.22, 5948.85
61, 0.00000, -6118.9, 4501.18, -4338.85, 2101.41, -5853.28, 6067.93
61, 900.00000, -5792.34, 4072, -4084.14, 1869.22, -5727.37, 5572.58
61, 1800.00000, -5688.77, 4083.08, -3982.92, 1856.36, -5637.3, 5555.41
61, 2700.00000, -5502.01, 4052.7, -3846.96, 1865.22, -5426.66, 5424.49
62, 0.00000, -5709.69, 4070.61, -4012.04, 1864.5, -5646.8, 5539.01
62, 900.00000, -5276.47, 3526.96, -3650.35, 1534.22, -5495.14, 4912.6
62, 1800.00000, -5207.21, 3517.93, -3600.89, 1541.07, -5409.82, 4865.53
62, 2700.00000, -5215.46, 3507.19, -3619.21, 1547.69, -5407.73, 4848.55
63, 0.00000, -5480.09, 3525.83, -3799.79, 1516.75, -5708.05, 4983.3
63, 900.00000, -4961.12, 2944.19, -3433.02, 1210.23, -5265.3, 4053.15
63, 1800.00000, -4901.75, 2925.66, -3407.32, 1227.55, -5175.56, 3998.53
63, 2700.00000, -4709.08, 2897.5, -3286.28, 1264.24, -4916.58, 3880.84
64, 0.00000, -4814.33, 2909.89, -3355.03, 1245.55, -5055.76, 3940.07
64, 900.00000, -3367.29, 1972.54, -2119.43, 806.876, -3503.71, 2339.53
64, 1800.00000, -3563.16, 1931.13, -2309.79, 757.946, -3738.42, 2322.66
64, 2700.00000, -3576.66, 1929.89, -2319.62, 754.756, -3756.1, 2324.4
65, 0.00000, -3593.72, 1916.09, -2357.9, 756.782, -3765.05, 2314.48
65, 900.00000, 709.638, 758.494, 707.129, 486.586, 877.763, 717.386
65, 1800.00000, 1504.67, 1222.25, 1045.68, 691.862, 1462.11, 1493.11
65, 2700.00000, 984.587, 1101.98, 932.007, 580.715, 1231.35, 999.101
66, 0.00000, 869.766, 859.617, 710.926, 471.425, 1021.92, 908.674
66, 900.00000, 1568.04, 829.541, 1074.42, 531.195, 1771.81, 1097.96
66, 1800.00000, 1588.87, 1188.46, 1137.14, 351.273, 1491.65, 963.56
66, 2700.00000, 1193.12, 802.209, 990.377, 416.653, 1542.5, 699.263
67, 0.00000, 1264.99, 696.844, 844.58, 304.738, 1422.18, 793.704
67, 900.00000, 1285.06, 772.756, 872.865, 288.694, 1388.52, 766.726
67, 1800.00000, 1292.19, 786.14, 900.953, 323.449, 1450.66, 783.407
67, 2700.00000, 1357.69, 810.568, 911.008, 329.095, 1482.88, 851.685
68, 0.00000, 1331.88, 857.816, 941.884, 329.388, 1472.2, 812.518
68, 900.00000, 1807.79, 969.472, 1030.62, 439.719, 1780.04, 1374.9
68, 1800.00000, 1231.16, 833.003, 866.72, 211.049, 1214.54, 639.214
68, 2700.00000, 1357.92, 744.8, 972.123, 468.211, 1720.89, 910.579
69, 0.00000, 1551.35, 947.054, 945.782, 284.391, 1440.05, 992.397
69, 900.00000, 1162.1, 724.188, 828.727, 244.974, 1256, 617.848
69, 1800.00000, 1211.77, 708.838, 845.717, 292.755, 1374.12, 713.472
69, 2700.00000, 1175.6, 671.948, 810.052, 260.264, 1305.61, 676.185
70, 0.00000, 1119.69, 624.313, 773.721, 236.323, 1239.35, 619.408
70, 900.00000, 1058.23, 570.396, 733.094, 211.144, 1168.75, 559.305
70, 1800.00000, 980.044, 503.175, 680.557, 178.521, 1078.58, 484.323
70, 2700.00000, 903.749, 438.941, 629.428, 147.604, 992.238, 412.694
71, 0.00000, 800.838, 354.769, 559.797, 105.288, 874.491, 317.69
71, 900.00000, 744.872, 309.353, 523.538, 85.2254, 814.493, 267.176
71, 1800.00000, 696.486, 270.813, 490.983, 66.4606, 760.968, 224.091
71, 2700.00000, 730.14, 296.485, 514.798, 82.5592, 803.988, 255.199
